
T17CC 000:034 SEGGER J-Link V4.68a Log File (0000ms, 0034ms total)
T17CC 000:034 DLL Compiled: Apr 12 2013 13:26:50 (0000ms, 0034ms total)
T17CC 000:034 Logging started @ 2014-07-01 13:54 (0000ms, 0034ms total)
T17CC 000:034 JLINK_SetWarnOutHandler(...) (0000ms, 0034ms total)
T17CC 000:034 JLINK_OpenEx(...)
Firmware: J-Link ARM V8 compiled Nov 14 2012 22:34:52
Hardware: V8.00
S/N: 17935099
Feature(s): RDI,FlashDL,FlashBP,JFlash  returns O.K. (0016ms, 0050ms total)
T17CC 000:050 JLINK_SetErrorOutHandler(...) (0000ms, 0050ms total)
T17CC 000:050 JLINK_ExecCommand("ProjectFile = "F:\STM32 Projects\stm32f103rbt6-weipass2\Project\STM32F10x_StdPeriph_Template\MDK-ARM\JLinkSettings.ini"", ...)  returns 0x00 (0000ms, 0050ms total)
T17CC 000:053 JLINK_ExecCommand("Device = STM32F103RC", ...)
                JLINK_AddMirrorAreaEx(Addr = 0x00000000, Size = 0x00000000) (0000ms, 0000ms total)
              Device "STM32F103RC" selected (256 KB flash, 48 KB RAM).  returns 0x00 (0003ms, 0053ms total)
T17CC 000:056 JLINK_ExecCommand("DisableConnectionTimeout", ...)  returns 0x00 (0000ms, 0053ms total)
T17CC 000:056 JLINK_GetHardwareVersion()  returns 0x13880 (0000ms, 0053ms total)
T17CC 000:056 JLINK_GetDLLVersion()  returns 46801 (0000ms, 0053ms total)
T17CC 000:056 JLINK_GetFirmwareString(...) (0000ms, 0053ms total)
T17CC 000:061 JLINK_GetDLLVersion()  returns 46801 (0000ms, 0053ms total)
T17CC 000:061 JLINK_GetCompileDateTime() (0000ms, 0053ms total)
T17CC 000:063 JLINK_GetFirmwareString(...) (0000ms, 0053ms total)
T17CC 000:065 JLINK_GetHardwareVersion()  returns 0x13880 (0001ms, 0054ms total)
T17CC 000:072 JLINK_TIF_Select(JLINKARM_TIF_JTAG)  returns 0x00 (0000ms, 0054ms total)
T17CC 000:072 JLINK_SetSpeed(2000) (0001ms, 0055ms total)
T17CC 000:073 JLINK_GetIdData(...) >0x2F8 JTAG>TotalIRLen = 9, IRPrint = 0x0011 >0x30 JTAG> >0x210 JTAG> >0x40 JTAG> >0x40 JTAG> >0x40 JTAG> >0x30 JTAG> >0x40 JTAG> >0x40 JTAG> >0x40 JTAG> >0x40 JTAG> >0x40 JTAG> >0x40 JTAG> >0x40 JTAG> >0x40 JTAG> >0x2F8 JTAG>TotalIRLen = 9, IRPrint = 0x0011 >0x30 JTAG> >0x210 JTAG> >0x80 JTAG> >0x40 JTAG> >0x40 JTAG> >0x50 JTAG> >0x40 JTAG> >0x40 JTAG> >0x40 JTAG> >0x50 JTAG> >0x40 JTAG> >0x40 JTAG> >0x40 JTAG> >0x30 JTAG> >0x40 JTAG> >0x50 JTAG> >0x40 JTAG>
 >0x38 JTAG> >0x80 JTAG> >0x40 JTAG> >0x40 JTAG> >0x50 JTAG> >0x40 JTAG> >0x40 JTAG> >0x40 JTAG> >0x50 JTAG> >0x40 JTAG> >0x40 JTAG> >0x30 JTAG> >0x40 JTAG> >0x40 JTAG> >0x40 JTAG> >0x40 JTAG> >0x40 JTAG> >0x50 JTAG> >0x40 JTAG> >0x80 JTAG> >0x40 JTAG> >0x30 JTAG> >0x40 JTAG> >0x40 JTAG> >0x40 JTAG> >0x40 JTAG> >0x40 JTAG> >0x50 JTAG> >0x40 JTAG> >0x80 JTAG> >0x40 JTAG> >0x30 JTAG> >0x40 JTAG> >0x50 JTAG> >0x40 JTAG> >0x40 JTAG> >0x40 JTAG> >0x30 JTAG> >0x40 JTAG> >0x50 JTAG> >0x40 JTAG>
Found Cortex-M3 r1p1, Little endian. >0x50 JTAG> >0x50 JTAG> >0x40 JTAG> >0x40 JTAG> >0x30 JTAG> >0x30 JTAG> >0x50 JTAG> >0x40 JTAG> >0x80 JTAG> >0x40 JTAG> >0x30 JTAG> >0x40 JTAG> >0x50 JTAG> >0x40 JTAG> >0x40 JTAG> >0x40 JTAG> >0x30 JTAG> >0x40 JTAG> >0x50 JTAG> >0x40 JTAG>TPIU fitted. >0x40 JTAG> >0x40 JTAG> >0x30 JTAG> >0x40 JTAG> >0x50 JTAG> >0x40 JTAG>ETM fitted. >0x40 JTAG> >0x40 JTAG> >0x30 JTAG> >0x40 JTAG> >0x50 JTAG> >0x40 JTAG> >0x40 JTAG> >0x40 JTAG> >0x30 JTAG> >0x40 JTAG> >0x50 JTAG>
 >0x40 JTAG>FPUnit: 6 code (BP) slots and 2 literal slots >0x40 JTAG> >0x40 JTAG> >0x30 JTAG> >0x40 JTAG> >0x50 JTAG> >0x40 JTAG> >0x40 JTAG> >0x40 JTAG> >0x30 JTAG> >0x40 JTAG> >0x50 JTAG> >0x40 JTAG> >0x40 JTAG> >0x40 JTAG> >0x30 JTAG> >0x30 JTAG> >0x50 JTAG> >0x40 JTAG> ScanLen=9 NumDevices=2 aId[0]=0x3BA00477 aIrRead[0]=0 aScanLen[0]=0 aScanRead[0]=0 (0104ms, 0159ms total)
T17CC 000:177 JLINK_JTAG_GetDeviceID(DeviceIndex = 0)  returns 0x3BA00477 (0000ms, 0159ms total)
T17CC 000:177 JLINK_JTAG_GetDeviceInfo(DeviceIndex = 0)  returns 0x00 (0000ms, 0159ms total)
T17CC 000:177 JLINK_JTAG_GetDeviceID(DeviceIndex = 1)  returns 0x6414041 (0000ms, 0159ms total)
T17CC 000:177 JLINK_JTAG_GetDeviceInfo(DeviceIndex = 1)  returns 0x00 (0000ms, 0159ms total)
T17CC 000:177 JLINK_GetDeviceFamily()  returns 3 (0000ms, 0159ms total)
T17CC 000:179 JLINK_ReadMem (0xE00FFFF0, 0x0010 Bytes, ...) -- CPU is running -- CPU_ReadMem(16 bytes @ 0xE00FFFF0) -- Data:  0D 00 00 00 10 00 00 00 05 00 00 00 B1 00 00 00  returns 0x00 (0004ms, 0163ms total)
T17CC 000:183 JLINK_ReadMem (0xE00FFFD0, 0x0020 Bytes, ...) -- CPU is running -- CPU_ReadMem(32 bytes @ 0xE00FFFD0) -- Data:  00 00 00 00 00 00 00 00 00 00 00 00 00 00 00 00 ...  returns 0x00 (0002ms, 0165ms total)
T17CC 000:185 JLINK_ReadMem (0xE00FF000, 0x0018 Bytes, ...) -- CPU is running -- CPU_ReadMem(24 bytes @ 0xE00FF000) -- Data:  03 F0 F0 FF 03 20 F0 FF 03 30 F0 FF 03 10 F0 FF ...  returns 0x00 (0001ms, 0166ms total)
T17CC 000:186 JLINK_ReadMemU32(0xE000ED00, 0x0001 Items, ...) -- CPU is running -- CPU_ReadMem(4 bytes @ 0xE000ED00) -- Data:  31 C2 1F 41  returns 0x01 (0001ms, 0167ms total)
T17CC 000:187 JLINK_SetResetType(JLINKARM_RESET_TYPE_NORMAL)  returns JLINKARM_RESET_TYPE_NORMAL (0000ms, 0167ms total)
T17CC 000:187 JLINK_Reset() >0x88 JTAG> >0x80 JTAG> >0x40 JTAG> >0x40 JTAG> >0x50 JTAG> >0x40 JTAG> >0x40 JTAG> >0x40 JTAG> >0x50 JTAG> >0x40 JTAG> >0x40 JTAG> >0x30 JTAG> >0x40 JTAG> >0x40 JTAG> >0x40 JTAG> >0x40 JTAG> >0x40 JTAG> >0x50 JTAG> >0x40 JTAG> >0x80 JTAG> >0x40 JTAG> >0x30 JTAG> >0x40 JTAG> >0x40 JTAG> >0x40 JTAG> >0x40 JTAG> >0x40 JTAG> >0x50 JTAG> >0x40 JTAG> >0x80 JTAG> >0x40 JTAG> >0x30 JTAG> >0x40 JTAG> >0x50 JTAG> >0x40 JTAG> >0x40 JTAG> >0x40 JTAG> >0x30 JTAG> >0x40 JTAG> >0x50 JTAG>
 >0x40 JTAG>Found Cortex-M3 r1p1, Little endian. >0x50 JTAG> >0x50 JTAG> >0x40 JTAG> >0x40 JTAG> >0x30 JTAG> >0x30 JTAG> >0x50 JTAG> >0x40 JTAG> >0x80 JTAG> >0x40 JTAG> >0x30 JTAG> >0x40 JTAG> >0x50 JTAG> >0x40 JTAG> >0x40 JTAG> >0x40 JTAG> >0x30 JTAG> >0x40 JTAG> >0x50 JTAG> >0x40 JTAG>TPIU fitted. >0x40 JTAG> >0x40 JTAG> >0x30 JTAG> >0x40 JTAG> >0x50 JTAG> >0x40 JTAG>ETM fitted. >0x40 JTAG> >0x40 JTAG> >0x30 JTAG> >0x40 JTAG> >0x50 JTAG> >0x40 JTAG> >0x40 JTAG> >0x40 JTAG> >0x30 JTAG> >0x40 JTAG>
 >0x50 JTAG> >0x40 JTAG>FPUnit: 6 code (BP) slots and 2 literal slots >0x40 JTAG> >0x40 JTAG> >0x30 JTAG> >0x40 JTAG> >0x50 JTAG> >0x40 JTAG> >0x40 JTAG> >0x40 JTAG> >0x30 JTAG> >0x40 JTAG> >0x50 JTAG> >0x40 JTAG> >0x40 JTAG> >0x40 JTAG> >0x30 JTAG> >0x30 JTAG> >0x50 JTAG> >0x40 JTAG> -- CPU is running -- CPU_WriteMem(4 bytes @ 0xE000EDF0) -- CPU is running -- CPU_WriteMem(4 bytes @ 0xE000EDFC) -- CPU is running -- CPU_WriteMem(4 bytes @ 0xE000ED0C) -- CPU is running -- CPU_ReadMem(4 bytes @ 0xE000EDF0)
 -- CPU is running -- CPU_ReadMem(4 bytes @ 0xE000EDF0) -- CPU is running -- CPU_WriteMem(4 bytes @ 0xE000EDF0) -- CPU is running -- CPU_WriteMem(4 bytes @ 0xE000EDFC) -- CPU is running -- CPU_ReadMem(4 bytes @ 0xE000EDF0) >0xD0 JTAG> >0x40 JTAG> >0x30 JTAG> >0x40 JTAG> >0x50 JTAG> >0x40 JTAG> -- CPU_WriteMem(4 bytes @ 0xE000EDFC) -- CPU_WriteMem(4 bytes @ 0xE0001028) -- CPU_WriteMem(4 bytes @ 0xE0001038) -- CPU_WriteMem(4 bytes @ 0xE0001048) -- CPU_WriteMem(4 bytes @ 0xE0001058)
 -- CPU_WriteMem(4 bytes @ 0xE0002000) (0108ms, 0275ms total)
T17CC 000:295 JLINK_Halt()  returns 0x00 (0000ms, 0275ms total)
T17CC 000:295 JLINK_IsHalted()  returns TRUE (0000ms, 0275ms total)
T17CC 000:295 JLINK_ReadMemU32(0xE000EDF0, 0x0001 Items, ...) -- CPU_ReadMem(4 bytes @ 0xE000EDF0) -- Data:  03 00 03 00  returns 0x01 (0001ms, 0276ms total)
T17CC 000:296 JLINK_WriteU32(0xE000EDF0, 0xA05F0003) -- CPU_WriteMem(4 bytes @ 0xE000EDF0)  returns 0x00 (0001ms, 0277ms total)
T17CC 000:297 JLINK_WriteU32(0xE000EDFC, 0x01000000) -- CPU_WriteMem(4 bytes @ 0xE000EDFC)  returns 0x00 (0001ms, 0278ms total)
T17CC 000:302 JLINK_GetHWStatus(...)  returns 0x00 (0001ms, 0279ms total)
T17CC 000:306 JLINK_GetNumBPUnits(Type = 0xFFFFFF00)  returns 0x06 (0000ms, 0279ms total)
T17CC 000:306 JLINK_GetNumBPUnits(Type = 0xF0)  returns 0x2000 (0000ms, 0279ms total)
T17CC 000:306 JLINK_GetNumWPUnits()  returns 0x04 (0000ms, 0279ms total)
T17CC 000:310 JLINK_GetSpeed()  returns 0x7D0 (0000ms, 0279ms total)
T17CC 000:312 JLINK_ReadMemU32(0xE000E004, 0x0001 Items, ...) -- CPU_ReadMem(4 bytes @ 0xE000E004) -- Data:  01 00 00 00  returns 0x01 (0001ms, 0280ms total)
T17CC 000:313 JLINK_ReadMemU32(0xE000E004, 0x0001 Items, ...) -- CPU_ReadMem(4 bytes @ 0xE000E004) -- Data:  01 00 00 00  returns 0x01 (0002ms, 0282ms total)
T17CC 000:315 JLINK_WriteMem(0xE0001000, 0x001C Bytes, ...) -- Data:  01 00 00 00 00 00 00 00 00 00 00 00 00 00 00 00 ... -- CPU_WriteMem(28 bytes @ 0xE0001000)  returns 0x1C (0001ms, 0283ms total)
T17CC 000:316 JLINK_ReadMem (0xE0001000, 0x001C Bytes, ...) -- CPU_ReadMem(28 bytes @ 0xE0001000) -- Data:  01 00 00 40 00 00 00 00 00 00 00 00 00 00 00 00 ...  returns 0x00 (0001ms, 0284ms total)
T17CC 000:317 JLINK_Halt()  returns 0x00 (0000ms, 0284ms total)
T17CC 000:317 JLINK_IsHalted()  returns TRUE (0000ms, 0284ms total)
T17CC 000:319 JLINK_WriteMem(0x20000000, 0x0164 Bytes, ...) -- Data:  00 BE 0A E0 0D 78 2D 06 68 40 08 24 40 00 00 D3 ... -- CPU_WriteMem(356 bytes @ 0x20000000)  returns 0x164 (0003ms, 0287ms total)
T17CC 000:322 JLINK_WriteReg(R0, 0x08000000)  returns 0x00 (0000ms, 0287ms total)
T17CC 000:322 JLINK_WriteReg(R1, 0x007A1200)  returns 0x00 (0000ms, 0287ms total)
T17CC 000:322 JLINK_WriteReg(R2, 0x00000001)  returns 0x00 (0000ms, 0287ms total)
T17CC 000:322 JLINK_WriteReg(R3, 0x00000000)  returns 0x00 (0000ms, 0287ms total)
T17CC 000:322 JLINK_WriteReg(R4, 0x00000000)  returns 0x00 (0000ms, 0287ms total)
T17CC 000:322 JLINK_WriteReg(R5, 0x00000000)  returns 0x00 (0000ms, 0287ms total)
T17CC 000:322 JLINK_WriteReg(R6, 0x00000000)  returns 0x00 (0000ms, 0287ms total)
T17CC 000:322 JLINK_WriteReg(R7, 0x00000000)  returns 0x00 (0000ms, 0287ms total)
T17CC 000:322 JLINK_WriteReg(R8, 0x00000000)  returns 0x00 (0000ms, 0287ms total)
T17CC 000:322 JLINK_WriteReg(R9, 0x20000160)  returns 0x00 (0000ms, 0287ms total)
T17CC 000:322 JLINK_WriteReg(R10, 0x00000000)  returns 0x00 (0000ms, 0287ms total)
T17CC 000:322 JLINK_WriteReg(R11, 0x00000000)  returns 0x00 (0000ms, 0287ms total)
T17CC 000:322 JLINK_WriteReg(R12, 0x00000000)  returns 0x00 (0000ms, 0287ms total)
T17CC 000:322 JLINK_WriteReg(R13, 0x20000800)  returns 0x00 (0000ms, 0287ms total)
T17CC 000:322 JLINK_WriteReg(R14, 0x20000001)  returns 0x00 (0000ms, 0287ms total)
T17CC 000:322 JLINK_WriteReg(R15, 0x20000038)  returns 0x00 (0000ms, 0287ms total)
T17CC 000:322 JLINK_WriteReg(XPSR, 0x01000000)  returns 0x00 (0000ms, 0287ms total)
T17CC 000:322 JLINK_WriteReg(MSP, 0x20000800)  returns 0x00 (0000ms, 0287ms total)
T17CC 000:322 JLINK_WriteReg(PSP, 0x20000800)  returns 0x00 (0000ms, 0287ms total)
T17CC 000:323 JLINK_WriteReg(CFBP, 0x00000000)  returns 0x00 (0000ms, 0288ms total)
T17CC 000:323 JLINK_SetBPEx(Addr = 0x20000000, Type = 0xFFFFFFF2) -- CPU_ReadMem(2 bytes @ 0x20000000)  returns 0x00000001 (0001ms, 0289ms total)
T17CC 000:324 JLINK_Go() -- CPU_WriteMem(2 bytes @ 0x20000000) -- CPU_WriteMem(4 bytes @ 0xE0002008) -- CPU_WriteMem(4 bytes @ 0xE000200C) -- CPU_WriteMem(4 bytes @ 0xE0002010) -- CPU_WriteMem(4 bytes @ 0xE0002014) -- CPU_WriteMem(4 bytes @ 0xE0002018) -- CPU_WriteMem(4 bytes @ 0xE000201C) (0009ms, 0298ms total)
T17CC 000:333 JLINK_IsHalted() -- CPU_ReadMem(2 bytes @ 0x20000000)  returns TRUE (0007ms, 0305ms total)
T17CC 000:340 JLINK_ReadReg(R15)  returns 0x20000000 (0000ms, 0298ms total)
T17CC 000:340 JLINK_ClrBPEx(BPHandle = 0x00000001)  returns 0x00 (0000ms, 0298ms total)
T17CC 000:340 JLINK_ReadReg(R0)  returns 0x00000000 (0000ms, 0298ms total)
T17CC 000:340 JLINK_WriteReg(R0, 0x08000000)  returns 0x00 (0000ms, 0298ms total)
T17CC 000:340 JLINK_WriteReg(R1, 0x007A1200)  returns 0x00 (0000ms, 0298ms total)
T17CC 000:340 JLINK_WriteReg(R2, 0x00000001)  returns 0x00 (0000ms, 0298ms total)
T17CC 000:340 JLINK_WriteReg(R3, 0x00000000)  returns 0x00 (0000ms, 0298ms total)
T17CC 000:340 JLINK_WriteReg(R4, 0x00000000)  returns 0x00 (0000ms, 0298ms total)
T17CC 000:340 JLINK_WriteReg(R5, 0x00000000)  returns 0x00 (0000ms, 0298ms total)
T17CC 000:340 JLINK_WriteReg(R6, 0x00000000)  returns 0x00 (0000ms, 0298ms total)
T17CC 000:340 JLINK_WriteReg(R7, 0x00000000)  returns 0x00 (0000ms, 0298ms total)
T17CC 000:340 JLINK_WriteReg(R8, 0x00000000)  returns 0x00 (0000ms, 0298ms total)
T17CC 000:340 JLINK_WriteReg(R9, 0x20000160)  returns 0x00 (0000ms, 0298ms total)
T17CC 000:340 JLINK_WriteReg(R10, 0x00000000)  returns 0x00 (0000ms, 0298ms total)
T17CC 000:340 JLINK_WriteReg(R11, 0x00000000)  returns 0x00 (0000ms, 0298ms total)
T17CC 000:340 JLINK_WriteReg(R12, 0x00000000)  returns 0x00 (0000ms, 0298ms total)
T17CC 000:340 JLINK_WriteReg(R13, 0x20000800)  returns 0x00 (0000ms, 0298ms total)
T17CC 000:340 JLINK_WriteReg(R14, 0x20000001)  returns 0x00 (0000ms, 0298ms total)
T17CC 000:340 JLINK_WriteReg(R15, 0x2000007C)  returns 0x00 (0000ms, 0298ms total)
T17CC 000:340 JLINK_WriteReg(XPSR, 0x01000000)  returns 0x00 (0000ms, 0298ms total)
T17CC 000:340 JLINK_WriteReg(MSP, 0x20000800)  returns 0x00 (0000ms, 0298ms total)
T17CC 000:340 JLINK_WriteReg(PSP, 0x20000800)  returns 0x00 (0000ms, 0298ms total)
T17CC 000:340 JLINK_WriteReg(CFBP, 0x00000000)  returns 0x00 (0000ms, 0298ms total)
T17CC 000:340 JLINK_SetBPEx(Addr = 0x20000000, Type = 0xFFFFFFF2)  returns 0x00000002 (0000ms, 0298ms total)
T17CC 000:340 JLINK_Go() (0002ms, 0300ms total)
T17CC 000:342 JLINK_IsHalted()  returns FALSE (0001ms, 0301ms total)
T17CC 000:364 JLINK_IsHalted() -- CPU_ReadMem(2 bytes @ 0x20000000)  returns TRUE (0006ms, 0306ms total)
T17CC 000:370 JLINK_ReadReg(R15)  returns 0x20000000 (0000ms, 0300ms total)
T17CC 000:370 JLINK_ClrBPEx(BPHandle = 0x00000002)  returns 0x00 (0000ms, 0300ms total)
T17CC 000:370 JLINK_ReadReg(R0)  returns 0x00000000 (0000ms, 0300ms total)
T17CC 000:420 JLINK_WriteReg(R0, 0x00000001)  returns 0x00 (0000ms, 0300ms total)
T17CC 000:420 JLINK_WriteReg(R1, 0x007A1200)  returns 0x00 (0000ms, 0300ms total)
T17CC 000:420 JLINK_WriteReg(R2, 0x00000001)  returns 0x00 (0000ms, 0300ms total)
T17CC 000:420 JLINK_WriteReg(R3, 0x00000000)  returns 0x00 (0000ms, 0300ms total)
T17CC 000:420 JLINK_WriteReg(R4, 0x00000000)  returns 0x00 (0000ms, 0300ms total)
T17CC 000:420 JLINK_WriteReg(R5, 0x00000000)  returns 0x00 (0000ms, 0300ms total)
T17CC 000:420 JLINK_WriteReg(R6, 0x00000000)  returns 0x00 (0001ms, 0301ms total)
T17CC 000:421 JLINK_WriteReg(R7, 0x00000000)  returns 0x00 (0000ms, 0301ms total)
T17CC 000:421 JLINK_WriteReg(R8, 0x00000000)  returns 0x00 (0000ms, 0301ms total)
T17CC 000:421 JLINK_WriteReg(R9, 0x20000160)  returns 0x00 (0000ms, 0301ms total)
T17CC 000:421 JLINK_WriteReg(R10, 0x00000000)  returns 0x00 (0000ms, 0301ms total)
T17CC 000:421 JLINK_WriteReg(R11, 0x00000000)  returns 0x00 (0000ms, 0301ms total)
T17CC 000:421 JLINK_WriteReg(R12, 0x00000000)  returns 0x00 (0000ms, 0301ms total)
T17CC 000:421 JLINK_WriteReg(R13, 0x20000800)  returns 0x00 (0000ms, 0301ms total)
T17CC 000:421 JLINK_WriteReg(R14, 0x20000001)  returns 0x00 (0000ms, 0301ms total)
T17CC 000:421 JLINK_WriteReg(R15, 0x2000006A)  returns 0x00 (0000ms, 0301ms total)
T17CC 000:421 JLINK_WriteReg(XPSR, 0x01000000)  returns 0x00 (0000ms, 0301ms total)
T17CC 000:421 JLINK_WriteReg(MSP, 0x20000800)  returns 0x00 (0000ms, 0301ms total)
T17CC 000:421 JLINK_WriteReg(PSP, 0x20000800)  returns 0x00 (0000ms, 0301ms total)
T17CC 000:421 JLINK_WriteReg(CFBP, 0x00000000)  returns 0x00 (0000ms, 0301ms total)
T17CC 000:421 JLINK_SetBPEx(Addr = 0x20000000, Type = 0xFFFFFFF2)  returns 0x00000003 (0000ms, 0301ms total)
T17CC 000:421 JLINK_Go() (0002ms, 0303ms total)
T17CC 000:423 JLINK_IsHalted() -- CPU_ReadMem(2 bytes @ 0x20000000)  returns TRUE (0007ms, 0310ms total)
T17CC 000:430 JLINK_ReadReg(R15)  returns 0x20000000 (0000ms, 0303ms total)
T17CC 000:430 JLINK_ClrBPEx(BPHandle = 0x00000003)  returns 0x00 (0000ms, 0303ms total)
T17CC 000:430 JLINK_ReadReg(R0)  returns 0x00000000 (0000ms, 0303ms total)
T17CC 000:436 JLINK_WriteMem(0x20000000, 0x0164 Bytes, ...) -- Data:  00 BE 0A E0 0D 78 2D 06 68 40 08 24 40 00 00 D3 ... -- CPU_WriteMem(356 bytes @ 0x20000000)  returns 0x164 (0003ms, 0306ms total)
T17CC 000:439 JLINK_WriteReg(R0, 0x08000000)  returns 0x00 (0000ms, 0306ms total)
T17CC 000:439 JLINK_WriteReg(R1, 0x007A1200)  returns 0x00 (0000ms, 0306ms total)
T17CC 000:439 JLINK_WriteReg(R2, 0x00000002)  returns 0x00 (0000ms, 0306ms total)
T17CC 000:439 JLINK_WriteReg(R3, 0x00000000)  returns 0x00 (0000ms, 0306ms total)
T17CC 000:439 JLINK_WriteReg(R4, 0x00000000)  returns 0x00 (0001ms, 0307ms total)
T17CC 000:440 JLINK_WriteReg(R5, 0x00000000)  returns 0x00 (0000ms, 0307ms total)
T17CC 000:440 JLINK_WriteReg(R6, 0x00000000)  returns 0x00 (0000ms, 0307ms total)
T17CC 000:440 JLINK_WriteReg(R7, 0x00000000)  returns 0x00 (0000ms, 0307ms total)
T17CC 000:440 JLINK_WriteReg(R8, 0x00000000)  returns 0x00 (0000ms, 0307ms total)
T17CC 000:440 JLINK_WriteReg(R9, 0x20000160)  returns 0x00 (0000ms, 0307ms total)
T17CC 000:440 JLINK_WriteReg(R10, 0x00000000)  returns 0x00 (0000ms, 0307ms total)
T17CC 000:440 JLINK_WriteReg(R11, 0x00000000)  returns 0x00 (0000ms, 0307ms total)
T17CC 000:440 JLINK_WriteReg(R12, 0x00000000)  returns 0x00 (0000ms, 0307ms total)
T17CC 000:440 JLINK_WriteReg(R13, 0x20000800)  returns 0x00 (0000ms, 0307ms total)
T17CC 000:440 JLINK_WriteReg(R14, 0x20000001)  returns 0x00 (0000ms, 0307ms total)
T17CC 000:440 JLINK_WriteReg(R15, 0x20000038)  returns 0x00 (0000ms, 0307ms total)
T17CC 000:440 JLINK_WriteReg(XPSR, 0x01000000)  returns 0x00 (0000ms, 0307ms total)
T17CC 000:440 JLINK_WriteReg(MSP, 0x20000800)  returns 0x00 (0000ms, 0307ms total)
T17CC 000:440 JLINK_WriteReg(PSP, 0x20000800)  returns 0x00 (0000ms, 0307ms total)
T17CC 000:440 JLINK_WriteReg(CFBP, 0x00000000)  returns 0x00 (0000ms, 0307ms total)
T17CC 000:440 JLINK_SetBPEx(Addr = 0x20000000, Type = 0xFFFFFFF2) -- CPU_ReadMem(2 bytes @ 0x20000000)  returns 0x00000004 (0001ms, 0308ms total)
T17CC 000:441 JLINK_Go() -- CPU_WriteMem(2 bytes @ 0x20000000) (0004ms, 0312ms total)
T17CC 000:445 JLINK_IsHalted() -- CPU_ReadMem(2 bytes @ 0x20000000)  returns TRUE (0006ms, 0318ms total)
T17CC 000:451 JLINK_ReadReg(R15)  returns 0x20000000 (0000ms, 0312ms total)
T17CC 000:451 JLINK_ClrBPEx(BPHandle = 0x00000004)  returns 0x00 (0000ms, 0312ms total)
T17CC 000:451 JLINK_ReadReg(R0)  returns 0x00000000 (0000ms, 0312ms total)
T17CC 000:451 JLINK_WriteMem(0x20000164, 0x0400 Bytes, ...) -- Data:  10 4C 00 20 01 01 00 08 F5 06 00 08 0D 06 00 08 ... -- CPU_WriteMem(1024 bytes @ 0x20000164)  returns 0x400 (0007ms, 0319ms total)
T17CC 000:458 JLINK_WriteReg(R0, 0x08000000)  returns 0x00 (0000ms, 0319ms total)
T17CC 000:458 JLINK_WriteReg(R1, 0x00000400)  returns 0x00 (0000ms, 0319ms total)
T17CC 000:458 JLINK_WriteReg(R2, 0x20000164)  returns 0x00 (0000ms, 0319ms total)
T17CC 000:458 JLINK_WriteReg(R3, 0x00000000)  returns 0x00 (0000ms, 0319ms total)
T17CC 000:458 JLINK_WriteReg(R4, 0x00000000)  returns 0x00 (0000ms, 0319ms total)
T17CC 000:458 JLINK_WriteReg(R5, 0x00000000)  returns 0x00 (0000ms, 0319ms total)
T17CC 000:458 JLINK_WriteReg(R6, 0x00000000)  returns 0x00 (0000ms, 0319ms total)
T17CC 000:458 JLINK_WriteReg(R7, 0x00000000)  returns 0x00 (0001ms, 0320ms total)
T17CC 000:459 JLINK_WriteReg(R8, 0x00000000)  returns 0x00 (0000ms, 0320ms total)
T17CC 000:459 JLINK_WriteReg(R9, 0x20000160)  returns 0x00 (0000ms, 0320ms total)
T17CC 000:459 JLINK_WriteReg(R10, 0x00000000)  returns 0x00 (0000ms, 0320ms total)
T17CC 000:459 JLINK_WriteReg(R11, 0x00000000)  returns 0x00 (0000ms, 0320ms total)
T17CC 000:459 JLINK_WriteReg(R12, 0x00000000)  returns 0x00 (0000ms, 0320ms total)
T17CC 000:459 JLINK_WriteReg(R13, 0x20000800)  returns 0x00 (0000ms, 0320ms total)
T17CC 000:459 JLINK_WriteReg(R14, 0x20000001)  returns 0x00 (0000ms, 0320ms total)
T17CC 000:459 JLINK_WriteReg(R15, 0x200000F4)  returns 0x00 (0000ms, 0320ms total)
T17CC 000:459 JLINK_WriteReg(XPSR, 0x01000000)  returns 0x00 (0000ms, 0320ms total)
T17CC 000:459 JLINK_WriteReg(MSP, 0x20000800)  returns 0x00 (0000ms, 0320ms total)
T17CC 000:459 JLINK_WriteReg(PSP, 0x20000800)  returns 0x00 (0000ms, 0320ms total)
T17CC 000:459 JLINK_WriteReg(CFBP, 0x00000000)  returns 0x00 (0000ms, 0320ms total)
T17CC 000:459 JLINK_SetBPEx(Addr = 0x20000000, Type = 0xFFFFFFF2)  returns 0x00000005 (0000ms, 0320ms total)
T17CC 000:459 JLINK_Go() (0002ms, 0322ms total)
T17CC 000:461 JLINK_IsHalted()  returns FALSE (0001ms, 0323ms total)
T17CC 000:478 JLINK_IsHalted()  returns FALSE (0000ms, 0322ms total)
T17CC 000:480 JLINK_IsHalted()  returns FALSE (0001ms, 0323ms total)
T17CC 000:483 JLINK_IsHalted()  returns FALSE (0001ms, 0323ms total)
T17CC 000:486 JLINK_IsHalted()  returns FALSE (0000ms, 0322ms total)
T17CC 000:488 JLINK_IsHalted()  returns FALSE (0000ms, 0322ms total)
T17CC 000:490 JLINK_IsHalted()  returns FALSE (0000ms, 0322ms total)
T17CC 000:492 JLINK_IsHalted() -- CPU_ReadMem(2 bytes @ 0x20000000)  returns TRUE (0006ms, 0328ms total)
T17CC 000:498 JLINK_ReadReg(R15)  returns 0x20000000 (0000ms, 0322ms total)
T17CC 000:498 JLINK_ClrBPEx(BPHandle = 0x00000005)  returns 0x00 (0000ms, 0322ms total)
T17CC 000:498 JLINK_ReadReg(R0)  returns 0x00000000 (0000ms, 0322ms total)
T17CC 000:498 JLINK_WriteMem(0x20000164, 0x0400 Bytes, ...) -- Data:  EC 20 00 20 08 B5 25 20 8D F8 00 00 00 20 8D F8 ... -- CPU_WriteMem(1024 bytes @ 0x20000164)  returns 0x400 (0007ms, 0329ms total)
T17CC 000:505 JLINK_WriteReg(R0, 0x08000400)  returns 0x00 (0000ms, 0329ms total)
T17CC 000:505 JLINK_WriteReg(R1, 0x00000400)  returns 0x00 (0000ms, 0329ms total)
T17CC 000:505 JLINK_WriteReg(R2, 0x20000164)  returns 0x00 (0000ms, 0329ms total)
T17CC 000:505 JLINK_WriteReg(R3, 0x00000000)  returns 0x00 (0000ms, 0329ms total)
T17CC 000:505 JLINK_WriteReg(R4, 0x00000000)  returns 0x00 (0000ms, 0329ms total)
T17CC 000:505 JLINK_WriteReg(R5, 0x00000000)  returns 0x00 (0000ms, 0329ms total)
T17CC 000:505 JLINK_WriteReg(R6, 0x00000000)  returns 0x00 (0000ms, 0329ms total)
T17CC 000:505 JLINK_WriteReg(R7, 0x00000000)  returns 0x00 (0000ms, 0329ms total)
T17CC 000:506 JLINK_WriteReg(R8, 0x00000000)  returns 0x00 (0000ms, 0330ms total)
T17CC 000:506 JLINK_WriteReg(R9, 0x20000160)  returns 0x00 (0000ms, 0330ms total)
T17CC 000:506 JLINK_WriteReg(R10, 0x00000000)  returns 0x00 (0000ms, 0330ms total)
T17CC 000:506 JLINK_WriteReg(R11, 0x00000000)  returns 0x00 (0000ms, 0330ms total)
T17CC 000:506 JLINK_WriteReg(R12, 0x00000000)  returns 0x00 (0000ms, 0330ms total)
T17CC 000:506 JLINK_WriteReg(R13, 0x20000800)  returns 0x00 (0000ms, 0330ms total)
T17CC 000:506 JLINK_WriteReg(R14, 0x20000001)  returns 0x00 (0000ms, 0330ms total)
T17CC 000:506 JLINK_WriteReg(R15, 0x200000F4)  returns 0x00 (0000ms, 0330ms total)
T17CC 000:506 JLINK_WriteReg(XPSR, 0x01000000)  returns 0x00 (0000ms, 0330ms total)
T17CC 000:506 JLINK_WriteReg(MSP, 0x20000800)  returns 0x00 (0000ms, 0330ms total)
T17CC 000:506 JLINK_WriteReg(PSP, 0x20000800)  returns 0x00 (0000ms, 0330ms total)
T17CC 000:506 JLINK_WriteReg(CFBP, 0x00000000)  returns 0x00 (0000ms, 0330ms total)
T17CC 000:506 JLINK_SetBPEx(Addr = 0x20000000, Type = 0xFFFFFFF2)  returns 0x00000006 (0000ms, 0330ms total)
T17CC 000:506 JLINK_Go() (0002ms, 0332ms total)
T17CC 000:508 JLINK_IsHalted()  returns FALSE (0001ms, 0333ms total)
T17CC 000:511 JLINK_IsHalted()  returns FALSE (0000ms, 0332ms total)
T17CC 000:513 JLINK_IsHalted()  returns FALSE (0000ms, 0332ms total)
T17CC 000:514 JLINK_IsHalted()  returns FALSE (0001ms, 0333ms total)
T17CC 000:521 JLINK_IsHalted()  returns FALSE (0000ms, 0332ms total)
T17CC 000:523 JLINK_IsHalted()  returns FALSE (0000ms, 0332ms total)
T17CC 000:525 JLINK_IsHalted()  returns FALSE (0000ms, 0332ms total)
T17CC 000:527 JLINK_IsHalted()  returns FALSE (0000ms, 0332ms total)
T17CC 000:533 JLINK_IsHalted()  returns FALSE (0000ms, 0332ms total)
T17CC 000:535 JLINK_IsHalted()  returns FALSE (0000ms, 0332ms total)
T17CC 000:537 JLINK_IsHalted()  returns FALSE (0000ms, 0332ms total)
T17CC 000:539 JLINK_IsHalted() -- CPU_ReadMem(2 bytes @ 0x20000000)  returns TRUE (0006ms, 0338ms total)
T17CC 000:545 JLINK_ReadReg(R15)  returns 0x20000000 (0000ms, 0332ms total)
T17CC 000:545 JLINK_ClrBPEx(BPHandle = 0x00000006)  returns 0x00 (0000ms, 0332ms total)
T17CC 000:545 JLINK_ReadReg(R0)  returns 0x00000000 (0000ms, 0332ms total)
T17CC 000:546 JLINK_WriteMem(0x20000164, 0x0400 Bytes, ...) -- Data:  D2 68 02 43 04 4B DA 60 04 E0 03 4A D2 68 82 43 ... -- CPU_WriteMem(1024 bytes @ 0x20000164)  returns 0x400 (0007ms, 0339ms total)
T17CC 000:553 JLINK_WriteReg(R0, 0x08000800)  returns 0x00 (0000ms, 0339ms total)
T17CC 000:553 JLINK_WriteReg(R1, 0x00000400)  returns 0x00 (0000ms, 0339ms total)
T17CC 000:553 JLINK_WriteReg(R2, 0x20000164)  returns 0x00 (0000ms, 0339ms total)
T17CC 000:553 JLINK_WriteReg(R3, 0x00000000)  returns 0x00 (0000ms, 0339ms total)
T17CC 000:553 JLINK_WriteReg(R4, 0x00000000)  returns 0x00 (0000ms, 0339ms total)
T17CC 000:553 JLINK_WriteReg(R5, 0x00000000)  returns 0x00 (0000ms, 0339ms total)
T17CC 000:553 JLINK_WriteReg(R6, 0x00000000)  returns 0x00 (0000ms, 0339ms total)
T17CC 000:553 JLINK_WriteReg(R7, 0x00000000)  returns 0x00 (0000ms, 0339ms total)
T17CC 000:553 JLINK_WriteReg(R8, 0x00000000)  returns 0x00 (0000ms, 0339ms total)
T17CC 000:553 JLINK_WriteReg(R9, 0x20000160)  returns 0x00 (0000ms, 0339ms total)
T17CC 000:553 JLINK_WriteReg(R10, 0x00000000)  returns 0x00 (0000ms, 0339ms total)
T17CC 000:553 JLINK_WriteReg(R11, 0x00000000)  returns 0x00 (0000ms, 0339ms total)
T17CC 000:553 JLINK_WriteReg(R12, 0x00000000)  returns 0x00 (0000ms, 0339ms total)
T17CC 000:553 JLINK_WriteReg(R13, 0x20000800)  returns 0x00 (0000ms, 0339ms total)
T17CC 000:553 JLINK_WriteReg(R14, 0x20000001)  returns 0x00 (0000ms, 0339ms total)
T17CC 000:553 JLINK_WriteReg(R15, 0x200000F4)  returns 0x00 (0000ms, 0339ms total)
T17CC 000:553 JLINK_WriteReg(XPSR, 0x01000000)  returns 0x00 (0001ms, 0340ms total)
T17CC 000:554 JLINK_WriteReg(MSP, 0x20000800)  returns 0x00 (0000ms, 0340ms total)
T17CC 000:554 JLINK_WriteReg(PSP, 0x20000800)  returns 0x00 (0000ms, 0340ms total)
T17CC 000:554 JLINK_WriteReg(CFBP, 0x00000000)  returns 0x00 (0000ms, 0340ms total)
T17CC 000:554 JLINK_SetBPEx(Addr = 0x20000000, Type = 0xFFFFFFF2)  returns 0x00000007 (0000ms, 0340ms total)
T17CC 000:554 JLINK_Go() (0002ms, 0342ms total)
T17CC 000:556 JLINK_IsHalted()  returns FALSE (0001ms, 0343ms total)
T17CC 000:560 JLINK_IsHalted()  returns FALSE (0000ms, 0342ms total)
T17CC 000:562 JLINK_IsHalted()  returns FALSE (0000ms, 0342ms total)
T17CC 000:564 JLINK_IsHalted()  returns FALSE (0000ms, 0342ms total)
T17CC 000:566 JLINK_IsHalted()  returns FALSE (0000ms, 0342ms total)
T17CC 000:567 JLINK_IsHalted()  returns FALSE (0000ms, 0342ms total)
T17CC 000:570 JLINK_IsHalted()  returns FALSE (0000ms, 0342ms total)
T17CC 000:571 JLINK_IsHalted()  returns FALSE (0000ms, 0342ms total)
T17CC 000:572 JLINK_IsHalted()  returns FALSE (0000ms, 0342ms total)
T17CC 000:573 JLINK_IsHalted()  returns FALSE (0000ms, 0342ms total)
T17CC 000:574 JLINK_IsHalted()  returns FALSE (0000ms, 0342ms total)
T17CC 000:575 JLINK_IsHalted()  returns FALSE (0000ms, 0342ms total)
T17CC 000:577 JLINK_IsHalted()  returns FALSE (0000ms, 0342ms total)
T17CC 000:578 JLINK_IsHalted()  returns FALSE (0000ms, 0342ms total)
T17CC 000:579 JLINK_IsHalted()  returns FALSE (0000ms, 0342ms total)
T17CC 000:580 JLINK_IsHalted()  returns FALSE (0001ms, 0343ms total)
T17CC 000:582 JLINK_IsHalted()  returns FALSE (0000ms, 0342ms total)
T17CC 000:583 JLINK_IsHalted()  returns FALSE (0000ms, 0342ms total)
T17CC 000:585 JLINK_IsHalted()  returns FALSE (0000ms, 0342ms total)
T17CC 000:586 JLINK_IsHalted()  returns FALSE (0000ms, 0342ms total)
T17CC 000:587 JLINK_IsHalted() -- CPU_ReadMem(2 bytes @ 0x20000000)  returns TRUE (0006ms, 0348ms total)
T17CC 000:593 JLINK_ReadReg(R15)  returns 0x20000000 (0000ms, 0342ms total)
T17CC 000:593 JLINK_ClrBPEx(BPHandle = 0x00000007)  returns 0x00 (0000ms, 0342ms total)
T17CC 000:593 JLINK_ReadReg(R0)  returns 0x00000000 (0000ms, 0342ms total)
T17CC 000:593 JLINK_WriteMem(0x20000164, 0x0400 Bytes, ...) -- Data:  4F F0 80 40 00 F0 5C F8 02 F0 04 F9 46 E0 24 48 ... -- CPU_WriteMem(1024 bytes @ 0x20000164)  returns 0x400 (0007ms, 0349ms total)
T17CC 000:600 JLINK_WriteReg(R0, 0x08000C00)  returns 0x00 (0000ms, 0349ms total)
T17CC 000:600 JLINK_WriteReg(R1, 0x00000400)  returns 0x00 (0000ms, 0349ms total)
T17CC 000:600 JLINK_WriteReg(R2, 0x20000164)  returns 0x00 (0000ms, 0349ms total)
T17CC 000:600 JLINK_WriteReg(R3, 0x00000000)  returns 0x00 (0000ms, 0349ms total)
T17CC 000:600 JLINK_WriteReg(R4, 0x00000000)  returns 0x00 (0000ms, 0349ms total)
T17CC 000:600 JLINK_WriteReg(R5, 0x00000000)  returns 0x00 (0000ms, 0349ms total)
T17CC 000:600 JLINK_WriteReg(R6, 0x00000000)  returns 0x00 (0000ms, 0349ms total)
T17CC 000:600 JLINK_WriteReg(R7, 0x00000000)  returns 0x00 (0000ms, 0349ms total)
T17CC 000:601 JLINK_WriteReg(R8, 0x00000000)  returns 0x00 (0000ms, 0349ms total)
T17CC 000:601 JLINK_WriteReg(R9, 0x20000160)  returns 0x00 (0000ms, 0349ms total)
T17CC 000:601 JLINK_WriteReg(R10, 0x00000000)  returns 0x00 (0000ms, 0349ms total)
T17CC 000:601 JLINK_WriteReg(R11, 0x00000000)  returns 0x00 (0000ms, 0349ms total)
T17CC 000:601 JLINK_WriteReg(R12, 0x00000000)  returns 0x00 (0000ms, 0349ms total)
T17CC 000:601 JLINK_WriteReg(R13, 0x20000800)  returns 0x00 (0000ms, 0349ms total)
T17CC 000:601 JLINK_WriteReg(R14, 0x20000001)  returns 0x00 (0000ms, 0349ms total)
T17CC 000:601 JLINK_WriteReg(R15, 0x200000F4)  returns 0x00 (0000ms, 0349ms total)
T17CC 000:601 JLINK_WriteReg(XPSR, 0x01000000)  returns 0x00 (0000ms, 0349ms total)
T17CC 000:601 JLINK_WriteReg(MSP, 0x20000800)  returns 0x00 (0000ms, 0349ms total)
T17CC 000:601 JLINK_WriteReg(PSP, 0x20000800)  returns 0x00 (0000ms, 0349ms total)
T17CC 000:601 JLINK_WriteReg(CFBP, 0x00000000)  returns 0x00 (0000ms, 0349ms total)
T17CC 000:601 JLINK_SetBPEx(Addr = 0x20000000, Type = 0xFFFFFFF2)  returns 0x00000008 (0000ms, 0349ms total)
T17CC 000:601 JLINK_Go() (0002ms, 0351ms total)
T17CC 000:603 JLINK_IsHalted()  returns FALSE (0001ms, 0352ms total)
T17CC 000:608 JLINK_IsHalted()  returns FALSE (0000ms, 0351ms total)
T17CC 000:611 JLINK_IsHalted()  returns FALSE (0001ms, 0352ms total)
T17CC 000:613 JLINK_IsHalted()  returns FALSE (0000ms, 0351ms total)
T17CC 000:616 JLINK_IsHalted()  returns FALSE (0000ms, 0351ms total)
T17CC 000:617 JLINK_IsHalted()  returns FALSE (0000ms, 0351ms total)
T17CC 000:618 JLINK_IsHalted()  returns FALSE (0000ms, 0351ms total)
T17CC 000:619 JLINK_IsHalted()  returns FALSE (0000ms, 0351ms total)
T17CC 000:620 JLINK_IsHalted()  returns FALSE (0000ms, 0351ms total)
T17CC 000:621 JLINK_IsHalted()  returns FALSE (0000ms, 0351ms total)
T17CC 000:627 JLINK_IsHalted()  returns FALSE (0000ms, 0351ms total)
T17CC 000:628 JLINK_IsHalted()  returns FALSE (0000ms, 0351ms total)
T17CC 000:629 JLINK_IsHalted()  returns FALSE (0000ms, 0351ms total)
T17CC 000:630 JLINK_IsHalted()  returns FALSE (0000ms, 0351ms total)
T17CC 000:632 JLINK_IsHalted()  returns FALSE (0000ms, 0351ms total)
T17CC 000:633 JLINK_IsHalted()  returns FALSE (0000ms, 0351ms total)
T17CC 000:636 JLINK_IsHalted() -- CPU_ReadMem(2 bytes @ 0x20000000)  returns TRUE (0007ms, 0358ms total)
T17CC 000:643 JLINK_ReadReg(R15)  returns 0x20000000 (0000ms, 0351ms total)
T17CC 000:643 JLINK_ClrBPEx(BPHandle = 0x00000008)  returns 0x00 (0000ms, 0351ms total)
T17CC 000:643 JLINK_ReadReg(R0)  returns 0x00000000 (0000ms, 0351ms total)
T17CC 000:643 JLINK_WriteMem(0x20000164, 0x0400 Bytes, ...) -- Data:  70 BD 00 00 10 B5 02 48 00 F0 50 F9 10 BD 00 00 ... -- CPU_WriteMem(1024 bytes @ 0x20000164)  returns 0x400 (0007ms, 0358ms total)
T17CC 000:650 JLINK_WriteReg(R0, 0x08001000)  returns 0x00 (0000ms, 0358ms total)
T17CC 000:650 JLINK_WriteReg(R1, 0x00000400)  returns 0x00 (0000ms, 0358ms total)
T17CC 000:650 JLINK_WriteReg(R2, 0x20000164)  returns 0x00 (0000ms, 0358ms total)
T17CC 000:650 JLINK_WriteReg(R3, 0x00000000)  returns 0x00 (0000ms, 0358ms total)
T17CC 000:650 JLINK_WriteReg(R4, 0x00000000)  returns 0x00 (0000ms, 0358ms total)
T17CC 000:650 JLINK_WriteReg(R5, 0x00000000)  returns 0x00 (0000ms, 0358ms total)
T17CC 000:650 JLINK_WriteReg(R6, 0x00000000)  returns 0x00 (0000ms, 0358ms total)
T17CC 000:650 JLINK_WriteReg(R7, 0x00000000)  returns 0x00 (0000ms, 0358ms total)
T17CC 000:650 JLINK_WriteReg(R8, 0x00000000)  returns 0x00 (0000ms, 0358ms total)
T17CC 000:650 JLINK_WriteReg(R9, 0x20000160)  returns 0x00 (0000ms, 0358ms total)
T17CC 000:650 JLINK_WriteReg(R10, 0x00000000)  returns 0x00 (0000ms, 0358ms total)
T17CC 000:650 JLINK_WriteReg(R11, 0x00000000)  returns 0x00 (0000ms, 0358ms total)
T17CC 000:650 JLINK_WriteReg(R12, 0x00000000)  returns 0x00 (0000ms, 0358ms total)
T17CC 000:650 JLINK_WriteReg(R13, 0x20000800)  returns 0x00 (0000ms, 0358ms total)
T17CC 000:650 JLINK_WriteReg(R14, 0x20000001)  returns 0x00 (0000ms, 0358ms total)
T17CC 000:650 JLINK_WriteReg(R15, 0x200000F4)  returns 0x00 (0000ms, 0358ms total)
T17CC 000:650 JLINK_WriteReg(XPSR, 0x01000000)  returns 0x00 (0000ms, 0358ms total)
T17CC 000:650 JLINK_WriteReg(MSP, 0x20000800)  returns 0x00 (0000ms, 0358ms total)
T17CC 000:650 JLINK_WriteReg(PSP, 0x20000800)  returns 0x00 (0000ms, 0358ms total)
T17CC 000:650 JLINK_WriteReg(CFBP, 0x00000000)  returns 0x00 (0000ms, 0358ms total)
T17CC 000:650 JLINK_SetBPEx(Addr = 0x20000000, Type = 0xFFFFFFF2)  returns 0x00000009 (0000ms, 0358ms total)
T17CC 000:650 JLINK_Go() (0003ms, 0361ms total)
T17CC 000:653 JLINK_IsHalted()  returns FALSE (0001ms, 0362ms total)
T17CC 000:660 JLINK_IsHalted()  returns FALSE (0000ms, 0361ms total)
T17CC 000:661 JLINK_IsHalted()  returns FALSE (0000ms, 0361ms total)
T17CC 000:663 JLINK_IsHalted()  returns FALSE (0000ms, 0361ms total)
T17CC 000:664 JLINK_IsHalted()  returns FALSE (0000ms, 0361ms total)
T17CC 000:665 JLINK_IsHalted()  returns FALSE (0000ms, 0361ms total)
T17CC 000:666 JLINK_IsHalted()  returns FALSE (0000ms, 0361ms total)
T17CC 000:667 JLINK_IsHalted()  returns FALSE (0000ms, 0361ms total)
T17CC 000:668 JLINK_IsHalted()  returns FALSE (0000ms, 0361ms total)
T17CC 000:669 JLINK_IsHalted()  returns FALSE (0000ms, 0361ms total)
T17CC 000:672 JLINK_IsHalted()  returns FALSE (0000ms, 0361ms total)
T17CC 000:673 JLINK_IsHalted()  returns FALSE (0000ms, 0361ms total)
T17CC 000:674 JLINK_IsHalted()  returns FALSE (0000ms, 0361ms total)
T17CC 000:675 JLINK_IsHalted()  returns FALSE (0000ms, 0361ms total)
T17CC 000:677 JLINK_IsHalted()  returns FALSE (0000ms, 0361ms total)
T17CC 000:678 JLINK_IsHalted()  returns FALSE (0000ms, 0361ms total)
T17CC 000:679 JLINK_IsHalted()  returns FALSE (0000ms, 0361ms total)
T17CC 000:680 JLINK_IsHalted()  returns FALSE (0000ms, 0361ms total)
T17CC 000:682 JLINK_IsHalted()  returns FALSE (0001ms, 0362ms total)
T17CC 000:684 JLINK_IsHalted() -- CPU_ReadMem(2 bytes @ 0x20000000)  returns TRUE (0006ms, 0367ms total)
T17CC 000:690 JLINK_ReadReg(R15)  returns 0x20000000 (0000ms, 0361ms total)
T17CC 000:690 JLINK_ClrBPEx(BPHandle = 0x00000009)  returns 0x00 (0000ms, 0361ms total)
T17CC 000:690 JLINK_ReadReg(R0)  returns 0x00000000 (0000ms, 0361ms total)
T17CC 000:690 JLINK_WriteMem(0x20000164, 0x0400 Bytes, ...) -- Data:  BD E8 F0 81 20 48 21 49 08 60 21 48 48 60 21 48 ... -- CPU_WriteMem(1024 bytes @ 0x20000164)  returns 0x400 (0007ms, 0368ms total)
T17CC 000:697 JLINK_WriteReg(R0, 0x08001400)  returns 0x00 (0000ms, 0368ms total)
T17CC 000:697 JLINK_WriteReg(R1, 0x00000400)  returns 0x00 (0000ms, 0368ms total)
T17CC 000:697 JLINK_WriteReg(R2, 0x20000164)  returns 0x00 (0000ms, 0368ms total)
T17CC 000:697 JLINK_WriteReg(R3, 0x00000000)  returns 0x00 (0000ms, 0368ms total)
T17CC 000:697 JLINK_WriteReg(R4, 0x00000000)  returns 0x00 (0000ms, 0368ms total)
T17CC 000:697 JLINK_WriteReg(R5, 0x00000000)  returns 0x00 (0000ms, 0368ms total)
T17CC 000:697 JLINK_WriteReg(R6, 0x00000000)  returns 0x00 (0000ms, 0368ms total)
T17CC 000:697 JLINK_WriteReg(R7, 0x00000000)  returns 0x00 (0000ms, 0368ms total)
T17CC 000:697 JLINK_WriteReg(R8, 0x00000000)  returns 0x00 (0000ms, 0368ms total)
T17CC 000:698 JLINK_WriteReg(R9, 0x20000160)  returns 0x00 (0000ms, 0369ms total)
T17CC 000:698 JLINK_WriteReg(R10, 0x00000000)  returns 0x00 (0000ms, 0369ms total)
T17CC 000:698 JLINK_WriteReg(R11, 0x00000000)  returns 0x00 (0000ms, 0369ms total)
T17CC 000:698 JLINK_WriteReg(R12, 0x00000000)  returns 0x00 (0000ms, 0369ms total)
T17CC 000:698 JLINK_WriteReg(R13, 0x20000800)  returns 0x00 (0000ms, 0369ms total)
T17CC 000:698 JLINK_WriteReg(R14, 0x20000001)  returns 0x00 (0000ms, 0369ms total)
T17CC 000:698 JLINK_WriteReg(R15, 0x200000F4)  returns 0x00 (0000ms, 0369ms total)
T17CC 000:698 JLINK_WriteReg(XPSR, 0x01000000)  returns 0x00 (0000ms, 0369ms total)
T17CC 000:698 JLINK_WriteReg(MSP, 0x20000800)  returns 0x00 (0000ms, 0369ms total)
T17CC 000:698 JLINK_WriteReg(PSP, 0x20000800)  returns 0x00 (0000ms, 0369ms total)
T17CC 000:698 JLINK_WriteReg(CFBP, 0x00000000)  returns 0x00 (0000ms, 0369ms total)
T17CC 000:698 JLINK_SetBPEx(Addr = 0x20000000, Type = 0xFFFFFFF2)  returns 0x0000000A (0000ms, 0369ms total)
T17CC 000:698 JLINK_Go() (0002ms, 0371ms total)
T17CC 000:700 JLINK_IsHalted()  returns FALSE (0001ms, 0372ms total)
T17CC 000:703 JLINK_IsHalted()  returns FALSE (0000ms, 0371ms total)
T17CC 000:704 JLINK_IsHalted()  returns FALSE (0000ms, 0371ms total)
T17CC 000:705 JLINK_IsHalted()  returns FALSE (0000ms, 0371ms total)
T17CC 000:706 JLINK_IsHalted()  returns FALSE (0000ms, 0371ms total)
T17CC 000:707 JLINK_IsHalted()  returns FALSE (0000ms, 0371ms total)
T17CC 000:708 JLINK_IsHalted()  returns FALSE (0000ms, 0371ms total)
T17CC 000:709 JLINK_IsHalted()  returns FALSE (0000ms, 0371ms total)
T17CC 000:710 JLINK_IsHalted()  returns FALSE (0000ms, 0371ms total)
T17CC 000:711 JLINK_IsHalted()  returns FALSE (0000ms, 0371ms total)
T17CC 000:712 JLINK_IsHalted()  returns FALSE (0000ms, 0371ms total)
T17CC 000:713 JLINK_IsHalted()  returns FALSE (0000ms, 0371ms total)
T17CC 000:714 JLINK_IsHalted()  returns FALSE (0001ms, 0372ms total)
T17CC 000:716 JLINK_IsHalted()  returns FALSE (0000ms, 0371ms total)
T17CC 000:719 JLINK_IsHalted()  returns FALSE (0000ms, 0371ms total)
T17CC 000:720 JLINK_IsHalted()  returns FALSE (0000ms, 0371ms total)
T17CC 000:721 JLINK_IsHalted()  returns FALSE (0000ms, 0371ms total)
T17CC 000:722 JLINK_IsHalted()  returns FALSE (0000ms, 0371ms total)
T17CC 000:723 JLINK_IsHalted()  returns FALSE (0000ms, 0371ms total)
T17CC 000:725 JLINK_IsHalted()  returns FALSE (0000ms, 0371ms total)
T17CC 000:726 JLINK_IsHalted()  returns FALSE (0000ms, 0371ms total)
T17CC 000:727 JLINK_IsHalted()  returns FALSE (0000ms, 0371ms total)
T17CC 000:728 JLINK_IsHalted()  returns FALSE (0000ms, 0371ms total)
T17CC 000:729 JLINK_IsHalted()  returns FALSE (0000ms, 0371ms total)
T17CC 000:737 JLINK_IsHalted() -- CPU_ReadMem(2 bytes @ 0x20000000)  returns TRUE (0006ms, 0377ms total)
T17CC 000:743 JLINK_ReadReg(R15)  returns 0x20000000 (0000ms, 0371ms total)
T17CC 000:743 JLINK_ClrBPEx(BPHandle = 0x0000000A)  returns 0x00 (0000ms, 0371ms total)
T17CC 000:743 JLINK_ReadReg(R0)  returns 0x00000000 (0000ms, 0371ms total)
T17CC 000:743 JLINK_WriteMem(0x20000164, 0x0400 Bytes, ...) -- Data:  07 FF 10 BD 30 B5 14 48 00 68 4F F4 7A 72 B0 FB ... -- CPU_WriteMem(1024 bytes @ 0x20000164)  returns 0x400 (0007ms, 0378ms total)
T17CC 000:750 JLINK_WriteReg(R0, 0x08001800)  returns 0x00 (0000ms, 0378ms total)
T17CC 000:750 JLINK_WriteReg(R1, 0x00000400)  returns 0x00 (0000ms, 0378ms total)
T17CC 000:750 JLINK_WriteReg(R2, 0x20000164)  returns 0x00 (0000ms, 0378ms total)
T17CC 000:750 JLINK_WriteReg(R3, 0x00000000)  returns 0x00 (0000ms, 0378ms total)
T17CC 000:750 JLINK_WriteReg(R4, 0x00000000)  returns 0x00 (0000ms, 0378ms total)
T17CC 000:750 JLINK_WriteReg(R5, 0x00000000)  returns 0x00 (0000ms, 0378ms total)
T17CC 000:750 JLINK_WriteReg(R6, 0x00000000)  returns 0x00 (0000ms, 0378ms total)
T17CC 000:750 JLINK_WriteReg(R7, 0x00000000)  returns 0x00 (0000ms, 0378ms total)
T17CC 000:750 JLINK_WriteReg(R8, 0x00000000)  returns 0x00 (0000ms, 0378ms total)
T17CC 000:750 JLINK_WriteReg(R9, 0x20000160)  returns 0x00 (0000ms, 0378ms total)
T17CC 000:750 JLINK_WriteReg(R10, 0x00000000)  returns 0x00 (0000ms, 0378ms total)
T17CC 000:750 JLINK_WriteReg(R11, 0x00000000)  returns 0x00 (0000ms, 0378ms total)
T17CC 000:750 JLINK_WriteReg(R12, 0x00000000)  returns 0x00 (0000ms, 0378ms total)
T17CC 000:750 JLINK_WriteReg(R13, 0x20000800)  returns 0x00 (0000ms, 0378ms total)
T17CC 000:750 JLINK_WriteReg(R14, 0x20000001)  returns 0x00 (0000ms, 0378ms total)
T17CC 000:750 JLINK_WriteReg(R15, 0x200000F4)  returns 0x00 (0000ms, 0378ms total)
T17CC 000:750 JLINK_WriteReg(XPSR, 0x01000000)  returns 0x00 (0000ms, 0378ms total)
T17CC 000:750 JLINK_WriteReg(MSP, 0x20000800)  returns 0x00 (0000ms, 0378ms total)
T17CC 000:750 JLINK_WriteReg(PSP, 0x20000800)  returns 0x00 (0000ms, 0378ms total)
T17CC 000:750 JLINK_WriteReg(CFBP, 0x00000000)  returns 0x00 (0000ms, 0378ms total)
T17CC 000:750 JLINK_SetBPEx(Addr = 0x20000000, Type = 0xFFFFFFF2)  returns 0x0000000B (0000ms, 0378ms total)
T17CC 000:750 JLINK_Go() (0003ms, 0381ms total)
T17CC 000:753 JLINK_IsHalted()  returns FALSE (0001ms, 0382ms total)
T17CC 000:758 JLINK_IsHalted()  returns FALSE (0000ms, 0381ms total)
T17CC 000:759 JLINK_IsHalted()  returns FALSE (0000ms, 0381ms total)
T17CC 000:760 JLINK_IsHalted()  returns FALSE (0000ms, 0381ms total)
T17CC 000:761 JLINK_IsHalted()  returns FALSE (0000ms, 0381ms total)
T17CC 000:764 JLINK_IsHalted()  returns FALSE (0001ms, 0382ms total)
T17CC 000:766 JLINK_IsHalted()  returns FALSE (0000ms, 0381ms total)
T17CC 000:767 JLINK_IsHalted()  returns FALSE (0000ms, 0381ms total)
T17CC 000:768 JLINK_IsHalted()  returns FALSE (0000ms, 0381ms total)
T17CC 000:769 JLINK_IsHalted()  returns FALSE (0000ms, 0381ms total)
T17CC 000:772 JLINK_IsHalted()  returns FALSE (0000ms, 0381ms total)
T17CC 000:773 JLINK_IsHalted()  returns FALSE (0000ms, 0381ms total)
T17CC 000:774 JLINK_IsHalted()  returns FALSE (0000ms, 0381ms total)
T17CC 000:775 JLINK_IsHalted()  returns FALSE (0000ms, 0381ms total)
T17CC 000:776 JLINK_IsHalted()  returns FALSE (0000ms, 0381ms total)
T17CC 000:777 JLINK_IsHalted()  returns FALSE (0000ms, 0381ms total)
T17CC 000:780 JLINK_IsHalted()  returns FALSE (0001ms, 0382ms total)
T17CC 000:782 JLINK_IsHalted()  returns FALSE (0000ms, 0381ms total)
T17CC 000:783 JLINK_IsHalted()  returns FALSE (0000ms, 0381ms total)
T17CC 000:786 JLINK_IsHalted() -- CPU_ReadMem(2 bytes @ 0x20000000)  returns TRUE (0006ms, 0387ms total)
T17CC 000:792 JLINK_ReadReg(R15)  returns 0x20000000 (0000ms, 0381ms total)
T17CC 000:792 JLINK_ClrBPEx(BPHandle = 0x0000000B)  returns 0x00 (0000ms, 0381ms total)
T17CC 000:792 JLINK_ReadReg(R0)  returns 0x00000000 (0000ms, 0381ms total)
T17CC 000:792 JLINK_WriteMem(0x20000164, 0x0400 Bytes, ...) -- Data:  08 00 0C 20 AD F8 0A 00 00 20 AD F8 0C 00 69 46 ... -- CPU_WriteMem(1024 bytes @ 0x20000164)  returns 0x400 (0007ms, 0388ms total)
T17CC 000:799 JLINK_WriteReg(R0, 0x08001C00)  returns 0x00 (0000ms, 0388ms total)
T17CC 000:799 JLINK_WriteReg(R1, 0x00000400)  returns 0x00 (0000ms, 0388ms total)
T17CC 000:799 JLINK_WriteReg(R2, 0x20000164)  returns 0x00 (0000ms, 0388ms total)
T17CC 000:799 JLINK_WriteReg(R3, 0x00000000)  returns 0x00 (0000ms, 0388ms total)
T17CC 000:799 JLINK_WriteReg(R4, 0x00000000)  returns 0x00 (0000ms, 0388ms total)
T17CC 000:799 JLINK_WriteReg(R5, 0x00000000)  returns 0x00 (0000ms, 0388ms total)
T17CC 000:799 JLINK_WriteReg(R6, 0x00000000)  returns 0x00 (0000ms, 0388ms total)
T17CC 000:799 JLINK_WriteReg(R7, 0x00000000)  returns 0x00 (0000ms, 0388ms total)
T17CC 000:799 JLINK_WriteReg(R8, 0x00000000)  returns 0x00 (0000ms, 0388ms total)
T17CC 000:799 JLINK_WriteReg(R9, 0x20000160)  returns 0x00 (0000ms, 0388ms total)
T17CC 000:799 JLINK_WriteReg(R10, 0x00000000)  returns 0x00 (0000ms, 0388ms total)
T17CC 000:799 JLINK_WriteReg(R11, 0x00000000)  returns 0x00 (0000ms, 0388ms total)
T17CC 000:799 JLINK_WriteReg(R12, 0x00000000)  returns 0x00 (0000ms, 0388ms total)
T17CC 000:799 JLINK_WriteReg(R13, 0x20000800)  returns 0x00 (0000ms, 0388ms total)
T17CC 000:799 JLINK_WriteReg(R14, 0x20000001)  returns 0x00 (0000ms, 0388ms total)
T17CC 000:799 JLINK_WriteReg(R15, 0x200000F4)  returns 0x00 (0000ms, 0388ms total)
T17CC 000:799 JLINK_WriteReg(XPSR, 0x01000000)  returns 0x00 (0001ms, 0389ms total)
T17CC 000:800 JLINK_WriteReg(MSP, 0x20000800)  returns 0x00 (0000ms, 0389ms total)
T17CC 000:800 JLINK_WriteReg(PSP, 0x20000800)  returns 0x00 (0000ms, 0389ms total)
T17CC 000:800 JLINK_WriteReg(CFBP, 0x00000000)  returns 0x00 (0000ms, 0389ms total)
T17CC 000:800 JLINK_SetBPEx(Addr = 0x20000000, Type = 0xFFFFFFF2)  returns 0x0000000C (0000ms, 0389ms total)
T17CC 000:800 JLINK_Go() (0002ms, 0391ms total)
T17CC 000:802 JLINK_IsHalted()  returns FALSE (0001ms, 0392ms total)
T17CC 000:805 JLINK_IsHalted()  returns FALSE (0000ms, 0391ms total)
T17CC 000:806 JLINK_IsHalted()  returns FALSE (0000ms, 0391ms total)
T17CC 000:807 JLINK_IsHalted()  returns FALSE (0000ms, 0391ms total)
T17CC 000:810 JLINK_IsHalted()  returns FALSE (0000ms, 0391ms total)
T17CC 000:811 JLINK_IsHalted()  returns FALSE (0000ms, 0391ms total)
T17CC 000:812 JLINK_IsHalted()  returns FALSE (0000ms, 0391ms total)
T17CC 000:813 JLINK_IsHalted()  returns FALSE (0000ms, 0391ms total)
T17CC 000:818 JLINK_IsHalted()  returns FALSE (0001ms, 0392ms total)
T17CC 000:820 JLINK_IsHalted()  returns FALSE (0001ms, 0392ms total)
T17CC 000:822 JLINK_IsHalted()  returns FALSE (0000ms, 0391ms total)
T17CC 000:823 JLINK_IsHalted()  returns FALSE (0000ms, 0391ms total)
T17CC 000:824 JLINK_IsHalted()  returns FALSE (0000ms, 0391ms total)
T17CC 000:825 JLINK_IsHalted()  returns FALSE (0000ms, 0391ms total)
T17CC 000:826 JLINK_IsHalted()  returns FALSE (0000ms, 0391ms total)
T17CC 000:827 JLINK_IsHalted()  returns FALSE (0000ms, 0391ms total)
T17CC 000:828 JLINK_IsHalted()  returns FALSE (0001ms, 0392ms total)
T17CC 000:830 JLINK_IsHalted()  returns FALSE (0000ms, 0391ms total)
T17CC 000:831 JLINK_IsHalted()  returns FALSE (0000ms, 0391ms total)
T17CC 000:832 JLINK_IsHalted()  returns FALSE (0000ms, 0391ms total)
T17CC 000:833 JLINK_IsHalted() -- CPU_ReadMem(2 bytes @ 0x20000000)  returns TRUE (0006ms, 0397ms total)
T17CC 000:839 JLINK_ReadReg(R15)  returns 0x20000000 (0000ms, 0391ms total)
T17CC 000:839 JLINK_ClrBPEx(BPHandle = 0x0000000C)  returns 0x00 (0000ms, 0391ms total)
T17CC 000:839 JLINK_ReadReg(R0)  returns 0x00000000 (0000ms, 0391ms total)
T17CC 000:839 JLINK_WriteMem(0x20000164, 0x0400 Bytes, ...) -- Data:  09 68 01 44 02 29 04 D9 01 22 00 21 08 4C 21 60 ... -- CPU_WriteMem(1024 bytes @ 0x20000164)  returns 0x400 (0007ms, 0398ms total)
T17CC 000:846 JLINK_WriteReg(R0, 0x08002000)  returns 0x00 (0000ms, 0398ms total)
T17CC 000:846 JLINK_WriteReg(R1, 0x00000400)  returns 0x00 (0000ms, 0398ms total)
T17CC 000:846 JLINK_WriteReg(R2, 0x20000164)  returns 0x00 (0000ms, 0398ms total)
T17CC 000:846 JLINK_WriteReg(R3, 0x00000000)  returns 0x00 (0000ms, 0398ms total)
T17CC 000:846 JLINK_WriteReg(R4, 0x00000000)  returns 0x00 (0000ms, 0398ms total)
T17CC 000:846 JLINK_WriteReg(R5, 0x00000000)  returns 0x00 (0000ms, 0398ms total)
T17CC 000:846 JLINK_WriteReg(R6, 0x00000000)  returns 0x00 (0000ms, 0398ms total)
T17CC 000:846 JLINK_WriteReg(R7, 0x00000000)  returns 0x00 (0000ms, 0398ms total)
T17CC 000:846 JLINK_WriteReg(R8, 0x00000000)  returns 0x00 (0000ms, 0398ms total)
T17CC 000:846 JLINK_WriteReg(R9, 0x20000160)  returns 0x00 (0000ms, 0398ms total)
T17CC 000:846 JLINK_WriteReg(R10, 0x00000000)  returns 0x00 (0000ms, 0398ms total)
T17CC 000:846 JLINK_WriteReg(R11, 0x00000000)  returns 0x00 (0000ms, 0398ms total)
T17CC 000:846 JLINK_WriteReg(R12, 0x00000000)  returns 0x00 (0000ms, 0398ms total)
T17CC 000:846 JLINK_WriteReg(R13, 0x20000800)  returns 0x00 (0000ms, 0398ms total)
T17CC 000:846 JLINK_WriteReg(R14, 0x20000001)  returns 0x00 (0000ms, 0398ms total)
T17CC 000:846 JLINK_WriteReg(R15, 0x200000F4)  returns 0x00 (0000ms, 0398ms total)
T17CC 000:846 JLINK_WriteReg(XPSR, 0x01000000)  returns 0x00 (0000ms, 0398ms total)
T17CC 000:847 JLINK_WriteReg(MSP, 0x20000800)  returns 0x00 (0000ms, 0399ms total)
T17CC 000:847 JLINK_WriteReg(PSP, 0x20000800)  returns 0x00 (0000ms, 0399ms total)
T17CC 000:847 JLINK_WriteReg(CFBP, 0x00000000)  returns 0x00 (0000ms, 0399ms total)
T17CC 000:847 JLINK_SetBPEx(Addr = 0x20000000, Type = 0xFFFFFFF2)  returns 0x0000000D (0000ms, 0399ms total)
T17CC 000:847 JLINK_Go() (0002ms, 0401ms total)
T17CC 000:849 JLINK_IsHalted()  returns FALSE (0001ms, 0402ms total)
T17CC 000:855 JLINK_IsHalted()  returns FALSE (0002ms, 0403ms total)
T17CC 000:861 JLINK_IsHalted()  returns FALSE (0000ms, 0401ms total)
T17CC 000:862 JLINK_IsHalted()  returns FALSE (0000ms, 0401ms total)
T17CC 000:863 JLINK_IsHalted()  returns FALSE (0000ms, 0401ms total)
T17CC 000:864 JLINK_IsHalted()  returns FALSE (0001ms, 0402ms total)
T17CC 000:866 JLINK_IsHalted()  returns FALSE (0000ms, 0401ms total)
T17CC 000:869 JLINK_IsHalted()  returns FALSE (0000ms, 0401ms total)
T17CC 000:870 JLINK_IsHalted()  returns FALSE (0001ms, 0402ms total)
T17CC 000:874 JLINK_IsHalted()  returns FALSE (0000ms, 0401ms total)
T17CC 000:875 JLINK_IsHalted()  returns FALSE (0000ms, 0401ms total)
T17CC 000:876 JLINK_IsHalted()  returns FALSE (0000ms, 0401ms total)
T17CC 000:877 JLINK_IsHalted()  returns FALSE (0000ms, 0401ms total)
T17CC 000:879 JLINK_IsHalted()  returns FALSE (0000ms, 0401ms total)
T17CC 000:880 JLINK_IsHalted() -- CPU_ReadMem(2 bytes @ 0x20000000)  returns TRUE (0006ms, 0407ms total)
T17CC 000:886 JLINK_ReadReg(R15)  returns 0x20000000 (0000ms, 0401ms total)
T17CC 000:886 JLINK_ClrBPEx(BPHandle = 0x0000000D)  returns 0x00 (0000ms, 0401ms total)
T17CC 000:886 JLINK_ReadReg(R0)  returns 0x00000000 (0000ms, 0401ms total)
